T0518 374:163 SEGGER J-Link V6.42a Log File (0000ms, 17990ms total)
T0518 374:163 DLL Compiled: Feb  1 2019 18:00:08 (0000ms, 17990ms total)
T0518 374:163 Logging started @ 2019-02-22 09:39 (0001ms, 17991ms total)
T0518 374:164 JLINK_SetWarnOutHandler(...) (0000ms, 17991ms total)
T0518 374:164 JLINK_OpenEx(...)
Firmware: J-Link Pro V4 compiled Jan  7 2019 14:01:14
Hardware: V4.00
S/N: 174301683
Feature(s): RDI, FlashBP, FlashDL, JFlash, GDB
TELNET listener socket opened on port 19021WEBSRV 
Starting webserver (0033ms, 18024ms total)
T0518 374:164 WEBSRV Webserver running on local port 19080 (0033ms, 18024ms total)
T0518 374:164   returns O.K. (0033ms, 18024ms total)
T0518 374:197 JLINK_GetEmuCaps()  returns 0xB9FF7BBF (0000ms, 18024ms total)
T0518 374:198 JLINK_TIF_GetAvailable(...) (0000ms, 18024ms total)
T0518 374:198 JLINK_SetErrorOutHandler(...) (0000ms, 18024ms total)
T0518 374:198 JLINK_ExecCommand("ProjectFile = "C:\Users\jmichael\OneDrive - Itron\Documents\STM32 Personal Firmware\test_486_VCP\MDK-ARM\JLinkSettings.ini"", ...).   returns 0x00 (0004ms, 18028ms total)
T0518 374:205 JLINK_ExecCommand("Device = STM32L486RGTx", ...). Device "STM32L486RG" selected.  returns 0x00 (0013ms, 18042ms total)
T0518 374:219 JLINK_ExecCommand("DisableConnectionTimeout", ...).   returns 0x01 (0000ms, 18042ms total)
T0518 374:219 JLINK_GetHardwareVersion()  returns 0x9C40 (0000ms, 18042ms total)
T0518 374:219 JLINK_GetDLLVersion()  returns 64201 (0000ms, 18042ms total)
T0518 374:219 JLINK_GetFirmwareString(...) (0000ms, 18042ms total)
T0518 374:233 JLINK_GetDLLVersion()  returns 64201 (0000ms, 18042ms total)
T0518 374:233 JLINK_GetCompileDateTime() (0000ms, 18042ms total)
T0518 374:236 JLINK_GetFirmwareString(...) (0000ms, 18042ms total)
T0518 374:238 JLINK_GetHardwareVersion()  returns 0x9C40 (0000ms, 18042ms total)
T0518 374:248 JLINK_TIF_Select(JLINKARM_TIF_JTAG)  returns 0x00 (0002ms, 18044ms total)
T0518 374:250 JLINK_SetSpeed(5000) (0001ms, 18045ms total)
T0518 374:251 JLINK_GetIdData(...) >0x2F8 JTAG>TotalIRLen = ?, IRPrint = 0x..000000000000000000000000 >0xC8 JTAG>STM32 (connect): Can not attach to CPU. Trying connect under reset. >0x2F8 JTAG>TotalIRLen = 9, IRPrint = 0x0011 >0x30 JTAG> >0x50 JTAG>JTAG chain detection found 2 devices: #0 Id: 0x4BA00477, IRLen: 04, CoreSight JTAG-DP #1 Id: 0x06415041, IRLen: 05, STM32 Boundary Scan >0x40 JTAG> >0x40 JTAG> >0x40 JTAG> >0x30 JTAG> >0x40 JTAG> >0x40 JTAG> >0x40 JTAG> >0x40 JTAG> >0x40 JTAG> >0x40 JTAG>
 >0x40 JTAG> >0x40 JTAG> >0x40 JTAG> >0x40 JTAG> >0x40 JTAG> >0x40 JTAG> >0x40 JTAG> >0x40 JTAG> >0x40 JTAG> >0x40 JTAG> >0x40 JTAG> >0x40 JTAG> >0x40 JTAG> >0x40 JTAG> >0x40 JTAG> >0x40 JTAG> >0x40 JTAG> >0x40 JTAG> >0x40 JTAG> >0x40 JTAG> >0x40 JTAG> >0x40 JTAG> >0x40 JTAG> >0x40 JTAG> >0x40 JTAG> >0x40 JTAG> >0x40 JTAG> >0x40 JTAG> >0x40 JTAG> >0x40 JTAG> >0x40 JTAG> >0x40 JTAG> >0x40 JTAG> >0x40 JTAG> >0x40 JTAG> >0x40 JTAG> >0x40 JTAG> >0x40 JTAG> >0x40 JTAG> >0x40 JTAG> >0x40 JTAG> >0x40 JTAG>
 >0x40 JTAG> >0x40 JTAG> >0x40 JTAG> >0x40 JTAG> >0x40 JTAG> >0x40 JTAG> >0x40 JTAG> >0x40 JTAG> >0x40 JTAG> >0x40 JTAG> >0x40 JTAG> >0x40 JTAG> >0x40 JTAG> >0x40 JTAG> >0x40 JTAG> >0x2F8 JTAG>TotalIRLen = 9, IRPrint = 0x0011 >0x30 JTAG> >0x50 JTAG>JTAG chain detection found 2 devices: #0 Id: 0x4BA00477, IRLen: 04, CoreSight JTAG-DP #1 Id: 0x06415041, IRLen: 05, STM32 Boundary ScanScanning AP map to find all available APs >0x80 JTAG> >0x50 JTAG> >0x40 JTAG> >0x40 JTAG> >0x50 JTAG> >0x40 JTAG>
AP[1]: Stopped AP scan as end of AP map has been reachedAP[0]: AHB-AP (IDR: 0x24770011)Iterating through AP map to find AHB-AP to use >0x80 JTAG> >0x50 JTAG> >0x50 JTAG> >0x70 JTAG> >0x40 JTAG> >0x30 JTAG> >0x40 JTAG> >0x40 JTAG>AP[0]: Core foundAP[0]: AHB-AP ROM base: 0xE00FF000 >0x40 JTAG> >0x40 JTAG> >0x30 JTAG> >0x40 JTAG> >0x40 JTAG>CPUID register: 0x410FC241. Implementer code: 0x41 (ARM)Found Cortex-M4 r0p1, Little endian. -- Max. mem block: 0x0000CE18 -- CPU_ReadMem(4 bytes @ 0xE000EDF0)
 -- CPU_ReadMem(4 bytes @ 0xE0002000)FPUnit: 6 code (BP) slots and 2 literal slots -- CPU_ReadMem(4 bytes @ 0xE000EDFC) -- CPU_WriteMem(4 bytes @ 0xE000EDFC) -- CPU_ReadMem(4 bytes @ 0xE0001000) -- CPU_WriteMem(4 bytes @ 0xE0001000) -- CPU_ReadMem(4 bytes @ 0xE000ED88) -- CPU_WriteMem(4 bytes @ 0xE000ED88) -- CPU_ReadMem(4 bytes @ 0xE000ED88) -- CPU_WriteMem(4 bytes @ 0xE000ED88)CoreSight components:ROMTbl[0] @ E00FF000 -- CPU_ReadMem(16 bytes @ 0xE00FF000) -- CPU_ReadMem(16 bytes @ 0xE000EFF0)
 -- CPU_ReadMem(16 bytes @ 0xE000EFE0)ROMTbl[0][0]: E000E000, CID: B105E00D, PID: 000BB00C SCS-M7 -- CPU_ReadMem(16 bytes @ 0xE0001FF0) -- CPU_ReadMem(16 bytes @ 0xE0001FE0)ROMTbl[0][1]: E0001000, CID: B105E00D, PID: 003BB002 DWT -- CPU_ReadMem(16 bytes @ 0xE0002FF0) -- CPU_ReadMem(16 bytes @ 0xE0002FE0)ROMTbl[0][2]: E0002000, CID: B105E00D, PID: 002BB003 FPB -- CPU_ReadMem(16 bytes @ 0xE0000FF0) -- CPU_ReadMem(16 bytes @ 0xE0000FE0)ROMTbl[0][3]: E0000000, CID: B105E00D, PID: 003BB001 ITM
 -- CPU_ReadMem(16 bytes @ 0xE00FF010) -- CPU_ReadMem(16 bytes @ 0xE0040FF0) -- CPU_ReadMem(16 bytes @ 0xE0040FE0)ROMTbl[0][4]: E0040000, CID: B105900D, PID: 000BB9A1 TPIU -- CPU_ReadMem(16 bytes @ 0xE0041FF0) -- CPU_ReadMem(16 bytes @ 0xE0041FE0)ROMTbl[0][5]: E0041000, CID: B105900D, PID: 000BB925 ETM ScanLen=9 NumDevices=2 aId[0]=0x4BA00477 aIrRead[0]=0 aScanLen[0]=0 aScanRead[0]=0 (0295ms, 18340ms total)
T0518 374:546 JLINK_JTAG_GetDeviceID(DeviceIndex = 0)  returns 0x4BA00477 (0000ms, 18340ms total)
T0518 374:546 JLINK_JTAG_GetDeviceInfo(DeviceIndex = 0)  returns 0x00 (0000ms, 18340ms total)
T0518 374:546 JLINK_JTAG_GetDeviceID(DeviceIndex = 1)  returns 0x6415041 (0000ms, 18340ms total)
T0518 374:546 JLINK_JTAG_GetDeviceInfo(DeviceIndex = 1)  returns 0x00 (0000ms, 18340ms total)
T0518 374:546 JLINK_GetDLLVersion()  returns 64201 (0000ms, 18340ms total)
T0518 374:546 JLINK_CORE_GetFound()  returns 0xE0000FF (0000ms, 18340ms total)
T0518 374:546 JLINK_GetDebugInfo(0x100 = JLINKARM_ROM_TABLE_ADDR_INDEX) -- Value=0xE00FF000  returns 0x00 (0000ms, 18340ms total)
T0518 374:550 JLINK_GetDebugInfo(0x100 = JLINKARM_ROM_TABLE_ADDR_INDEX) -- Value=0xE00FF000  returns 0x00 (0000ms, 18340ms total)
T0518 374:550 JLINK_GetDebugInfo(0x101 = JLINKARM_DEBUG_INFO_ETM_ADDR_INDEX) -- Value=0xE0041000  returns 0x00 (0000ms, 18340ms total)
T0518 374:550 JLINK_ReadMemEx(0xE0041FD0, 0x0020 Bytes, ..., Flags = 0x02000004) -- CPU_ReadMem(32 bytes @ 0xE0041FD0) - Data: 04 00 00 00 00 00 00 00 00 00 00 00 00 00 00 00 ...  returns 0x20 (0001ms, 18341ms total)
T0518 374:551 JLINK_GetDebugInfo(0x102 = JLINKARM_DEBUG_INFO_MTB_ADDR_INDEX) -- Value=0x00000000  returns 0x00 (0000ms, 18341ms total)
T0518 374:551 JLINK_GetDebugInfo(0x103 = JLINKARM_DEBUG_INFO_TPIU_ADDR_INDEX) -- Value=0xE0040000  returns 0x00 (0000ms, 18341ms total)
T0518 374:551 JLINK_GetDebugInfo(0x104 = JLINKARM_DEBUG_INFO_ITM_ADDR_INDEX) -- Value=0xE0000000  returns 0x00 (0000ms, 18341ms total)
T0518 374:551 JLINK_GetDebugInfo(0x105 = JLINKARM_DEBUG_INFO_DWT_ADDR_INDEX) -- Value=0xE0001000  returns 0x00 (0000ms, 18341ms total)
T0518 374:551 JLINK_GetDebugInfo(0x106 = JLINKARM_DEBUG_INFO_FPB_ADDR_INDEX) -- Value=0xE0002000  returns 0x00 (0000ms, 18341ms total)
T0518 374:551 JLINK_GetDebugInfo(0x107 = JLINKARM_DEBUG_INFO_NVIC_ADDR_INDEX) -- Value=0xE000E000  returns 0x00 (0000ms, 18341ms total)
T0518 374:551 JLINK_GetDebugInfo(0x10C = JLINKARM_DEBUG_INFO_DBG_ADDR_INDEX) -- Value=0xE000EDF0  returns 0x00 (0000ms, 18341ms total)
T0518 374:551 JLINK_GetDebugInfo(0x01 = Unknown) -- Value=0x00000001  returns 0x00 (0000ms, 18341ms total)
T0518 374:552 JLINK_ReadMemU32(0xE000ED00, 0x0001 Items, ...) -- CPU_ReadMem(4 bytes @ 0xE000ED00) - Data: 41 C2 0F 41  returns 1 (0000ms, 18342ms total)
T0518 374:552 JLINK_GetDebugInfo(0x10F = JLINKARM_DEBUG_INFO_HAS_CORTEX_M_SECURITY_EXT_INDEX) -- Value=0x00000000  returns 0x00 (0000ms, 18342ms total)
T0518 374:552 JLINK_SetResetType(JLINKARM_CM3_RESET_TYPE_NORMAL)  returns JLINKARM_CM3_RESET_TYPE_NORMAL (0000ms, 18342ms total)
T0518 374:552 JLINK_Reset() -- CPU is running -- CPU_WriteMem(4 bytes @ 0xE000EDF0) -- CPU is running -- CPU_WriteMem(4 bytes @ 0xE000EDFC)Reset: Halt core after reset via DEMCR.VC_CORERESET.Reset: Reset device via AIRCR.SYSRESETREQ. -- CPU is running -- CPU_WriteMem(4 bytes @ 0xE000ED0C) -- CPU_ReadMem(4 bytes @ 0xE000EDF0) -- CPU_ReadMem(4 bytes @ 0xE000EDF0) -- CPU is running -- CPU_WriteMem(4 bytes @ 0xE000EDF0) -- CPU is running -- CPU_WriteMem(4 bytes @ 0xE000EDFC)
 -- CPU_ReadMem(4 bytes @ 0xE000EDF0) -- CPU_WriteMem(4 bytes @ 0xE000EDFC) -- CPU_WriteMem(4 bytes @ 0xE0001028) -- CPU_WriteMem(4 bytes @ 0xE0001038) -- CPU_WriteMem(4 bytes @ 0xE0001048) -- CPU_WriteMem(4 bytes @ 0xE0001058) -- CPU_WriteMem(4 bytes @ 0xE0002000) -- CPU_ReadMem(4 bytes @ 0xE000EDFC) -- CPU_ReadMem(4 bytes @ 0xE0001000) (0077ms, 18419ms total)
T0518 374:629 JLINK_Halt()  returns 0x00 (0000ms, 18419ms total)
T0518 374:629 JLINK_ReadMemU32(0xE000EDF0, 0x0001 Items, ...) -- CPU_ReadMem(4 bytes @ 0xE000EDF0) - Data: 03 00 03 00  returns 1 (0000ms, 18419ms total)
T0518 374:629 JLINK_WriteU32(0xE000EDF0, 0xA05F0003) -- CPU_WriteMem(4 bytes @ 0xE000EDF0)  returns 0 (0001ms, 18420ms total)
T0518 374:630 JLINK_WriteU32(0xE000EDFC, 0x01000000) -- CPU_WriteMem(4 bytes @ 0xE000EDFC)  returns 0 (0001ms, 18421ms total)
T0518 374:642 JLINK_GetHWStatus(...)  returns 0x00 (0000ms, 18421ms total)
T0518 374:650 JLINK_GetNumBPUnits(Type = 0xFFFFFF00)  returns 0x06 (0000ms, 18421ms total)
T0518 374:650 JLINK_GetNumBPUnits(Type = 0xF0)  returns 0x2000 (0000ms, 18421ms total)
T0518 374:650 JLINK_GetNumWPUnits()  returns 0x04 (0000ms, 18421ms total)
T0518 374:658 JLINK_GetSpeed()  returns 0x1388 (0000ms, 18421ms total)
T0518 374:663 JLINK_ReadMemU32(0xE000E004, 0x0001 Items, ...) -- CPU_ReadMem(4 bytes @ 0xE000E004) - Data: 02 00 00 00  returns 1 (0001ms, 18422ms total)
T0518 374:664 JLINK_ReadMemU32(0xE000E004, 0x0001 Items, ...) -- CPU_ReadMem(4 bytes @ 0xE000E004) - Data: 02 00 00 00  returns 1 (0001ms, 18423ms total)
T0518 374:665 JLINK_WriteMemEx(0xE0001000, 0x001C Bytes, ..., Flags = 0x02000004) - Data: 01 00 00 00 00 00 00 00 00 00 00 00 00 00 00 00 ... -- CPU_WriteMem(28 bytes @ 0xE0001000)  returns 0x1C (0002ms, 18425ms total)
T0518 374:667 JLINK_Halt()  returns 0x00 (0000ms, 18425ms total)
T0518 374:667 JLINK_IsHalted()  returns TRUE (0000ms, 18425ms total)
T0518 374:672 JLINK_WriteMem(0x20000000, 0x01BC Bytes, ...) - Data: 00 BE 0A E0 0D 78 2D 06 68 40 08 24 40 00 00 D3 ... -- CPU_WriteMem(444 bytes @ 0x20000000)  returns 0x1BC (0004ms, 18429ms total)
T0518 374:676 JLINK_WriteReg(R0, 0x08000000)  returns 0x00 (0001ms, 18430ms total)
T0518 374:677 JLINK_WriteReg(R1, 0x04C4B400)  returns 0x00 (0000ms, 18430ms total)
T0518 374:677 JLINK_WriteReg(R2, 0x00000001)  returns 0x00 (0000ms, 18430ms total)
T0518 374:677 JLINK_WriteReg(R3, 0x00000000)  returns 0x00 (0000ms, 18430ms total)
T0518 374:677 JLINK_WriteReg(R4, 0x00000000)  returns 0x00 (0000ms, 18430ms total)
T0518 374:677 JLINK_WriteReg(R5, 0x00000000)  returns 0x00 (0000ms, 18430ms total)
T0518 374:677 JLINK_WriteReg(R6, 0x00000000)  returns 0x00 (0000ms, 18430ms total)
T0518 374:677 JLINK_WriteReg(R7, 0x00000000)  returns 0x00 (0000ms, 18430ms total)
T0518 374:677 JLINK_WriteReg(R8, 0x00000000)  returns 0x00 (0000ms, 18430ms total)
T0518 374:677 JLINK_WriteReg(R9, 0x200001B8)  returns 0x00 (0000ms, 18430ms total)
T0518 374:677 JLINK_WriteReg(R10, 0x00000000)  returns 0x00 (0000ms, 18430ms total)
T0518 374:677 JLINK_WriteReg(R11, 0x00000000)  returns 0x00 (0000ms, 18430ms total)
T0518 374:677 JLINK_WriteReg(R12, 0x00000000)  returns 0x00 (0000ms, 18430ms total)
T0518 374:677 JLINK_WriteReg(R13 (SP), 0x20001000)  returns 0x00 (0000ms, 18430ms total)
T0518 374:677 JLINK_WriteReg(R14, 0x20000001)  returns 0x00 (0000ms, 18430ms total)
T0518 374:678 JLINK_WriteReg(R15 (PC), 0x20000086)  returns 0x00 (0000ms, 18431ms total)
T0518 374:678 JLINK_WriteReg(XPSR, 0x01000000)  returns 0x00 (0000ms, 18431ms total)
T0518 374:678 JLINK_WriteReg(MSP, 0x20001000)  returns 0x00 (0000ms, 18431ms total)
T0518 374:678 JLINK_WriteReg(PSP, 0x20001000)  returns 0x00 (0000ms, 18431ms total)
T0518 374:678 JLINK_WriteReg(CFBP, 0x00000000)  returns 0x00 (0000ms, 18431ms total)
T0518 374:678 JLINK_SetBPEx(Addr = 0x20000000, Type = 0xFFFFFFF2) -- CPU_ReadMem(2 bytes @ 0x20000000)  returns 0x00000001 (0001ms, 18432ms total)
T0518 374:679 JLINK_Go() -- CPU_WriteMem(2 bytes @ 0x20000000) -- CPU_ReadMem(4 bytes @ 0xE0001000) -- CPU_WriteMem(4 bytes @ 0xE0002008) -- CPU_WriteMem(4 bytes @ 0xE000200C) -- CPU_WriteMem(4 bytes @ 0xE0002010) -- CPU_WriteMem(4 bytes @ 0xE0002014) -- CPU_WriteMem(4 bytes @ 0xE0002018) -- CPU_WriteMem(4 bytes @ 0xE000201C) -- CPU_WriteMem(4 bytes @ 0xE0001004) (0009ms, 18441ms total)
T0518 374:688 JLINK_IsHalted() -- CPU_ReadMem(2 bytes @ 0x20000000)  returns TRUE (0003ms, 18444ms total)
T0518 374:691 JLINK_ReadReg(R15 (PC))  returns 0x20000000 (0001ms, 18442ms total)
T0518 374:692 JLINK_ClrBPEx(BPHandle = 0x00000001)  returns 0x00 (0000ms, 18442ms total)
T0518 374:692 JLINK_ReadReg(R0)  returns 0x00000000 (0000ms, 18442ms total)
T0518 374:692 JLINK_WriteReg(R0, 0x08000000)  returns 0x00 (0000ms, 18442ms total)
T0518 374:692 JLINK_WriteReg(R1, 0x00000800)  returns 0x00 (0000ms, 18442ms total)
T0518 374:692 JLINK_WriteReg(R2, 0x000000FF)  returns 0x00 (0000ms, 18442ms total)
T0518 374:692 JLINK_WriteReg(R3, 0x00000000)  returns 0x00 (0000ms, 18442ms total)
T0518 374:692 JLINK_WriteReg(R4, 0x00000000)  returns 0x00 (0000ms, 18442ms total)
T0518 374:692 JLINK_WriteReg(R5, 0x00000000)  returns 0x00 (0000ms, 18442ms total)
T0518 374:692 JLINK_WriteReg(R6, 0x00000000)  returns 0x00 (0001ms, 18443ms total)
T0518 374:693 JLINK_WriteReg(R7, 0x00000000)  returns 0x00 (0000ms, 18443ms total)
T0518 374:693 JLINK_WriteReg(R8, 0x00000000)  returns 0x00 (0000ms, 18443ms total)
T0518 374:693 JLINK_WriteReg(R9, 0x200001B8)  returns 0x00 (0000ms, 18443ms total)
T0518 374:693 JLINK_WriteReg(R10, 0x00000000)  returns 0x00 (0000ms, 18443ms total)
T0518 374:693 JLINK_WriteReg(R11, 0x00000000)  returns 0x00 (0000ms, 18443ms total)
T0518 374:693 JLINK_WriteReg(R12, 0x00000000)  returns 0x00 (0000ms, 18443ms total)
T0518 374:693 JLINK_WriteReg(R13 (SP), 0x20001000)  returns 0x00 (0000ms, 18443ms total)
T0518 374:693 JLINK_WriteReg(R14, 0x20000001)  returns 0x00 (0000ms, 18443ms total)
T0518 374:693 JLINK_WriteReg(R15 (PC), 0x200000BC)  returns 0x00 (0000ms, 18443ms total)
T0518 374:693 JLINK_WriteReg(XPSR, 0x01000000)  returns 0x00 (0000ms, 18443ms total)
T0518 374:693 JLINK_WriteReg(MSP, 0x20001000)  returns 0x00 (0000ms, 18443ms total)
T0518 374:693 JLINK_WriteReg(PSP, 0x20001000)  returns 0x00 (0000ms, 18443ms total)
T0518 374:693 JLINK_WriteReg(CFBP, 0x00000000)  returns 0x00 (0000ms, 18443ms total)
T0518 374:693 JLINK_SetBPEx(Addr = 0x20000000, Type = 0xFFFFFFF2)  returns 0x00000002 (0000ms, 18443ms total)
T0518 374:694 JLINK_Go() -- CPU_ReadMem(4 bytes @ 0xE0001000) (0003ms, 18447ms total)
T0518 374:697 JLINK_IsHalted() -- CPU_ReadMem(2 bytes @ 0x20000000)  returns TRUE (0004ms, 18451ms total)
T0518 374:701 JLINK_ReadReg(R15 (PC))  returns 0x20000000 (0000ms, 18447ms total)
T0518 374:701 JLINK_ClrBPEx(BPHandle = 0x00000002)  returns 0x00 (0000ms, 18447ms total)
T0518 374:701 JLINK_ReadReg(R0)  returns 0x00000001 (0000ms, 18447ms total)
T0518 374:701 JLINK_WriteReg(R0, 0x08000000)  returns 0x00 (0000ms, 18447ms total)
T0518 374:701 JLINK_WriteReg(R1, 0x00000800)  returns 0x00 (0000ms, 18447ms total)
T0518 374:701 JLINK_WriteReg(R2, 0x000000FF)  returns 0x00 (0000ms, 18447ms total)
T0518 374:701 JLINK_WriteReg(R3, 0x00000000)  returns 0x00 (0000ms, 18447ms total)
T0518 374:701 JLINK_WriteReg(R4, 0x00000000)  returns 0x00 (0000ms, 18447ms total)
T0518 374:701 JLINK_WriteReg(R5, 0x00000000)  returns 0x00 (0000ms, 18447ms total)
T0518 374:701 JLINK_WriteReg(R6, 0x00000000)  returns 0x00 (0000ms, 18447ms total)
T0518 374:701 JLINK_WriteReg(R7, 0x00000000)  returns 0x00 (0001ms, 18448ms total)
T0518 374:702 JLINK_WriteReg(R8, 0x00000000)  returns 0x00 (0000ms, 18448ms total)
T0518 374:702 JLINK_WriteReg(R9, 0x200001B8)  returns 0x00 (0000ms, 18448ms total)
T0518 374:702 JLINK_WriteReg(R10, 0x00000000)  returns 0x00 (0000ms, 18448ms total)
T0518 374:702 JLINK_WriteReg(R11, 0x00000000)  returns 0x00 (0000ms, 18448ms total)
T0518 374:702 JLINK_WriteReg(R12, 0x00000000)  returns 0x00 (0000ms, 18448ms total)
T0518 374:702 JLINK_WriteReg(R13 (SP), 0x20001000)  returns 0x00 (0000ms, 18448ms total)
T0518 374:702 JLINK_WriteReg(R14, 0x20000001)  returns 0x00 (0000ms, 18448ms total)
T0518 374:702 JLINK_WriteReg(R15 (PC), 0x200000EA)  returns 0x00 (0000ms, 18448ms total)
T0518 374:702 JLINK_WriteReg(XPSR, 0x01000000)  returns 0x00 (0000ms, 18448ms total)
T0518 374:702 JLINK_WriteReg(MSP, 0x20001000)  returns 0x00 (0000ms, 18448ms total)
T0518 374:702 JLINK_WriteReg(PSP, 0x20001000)  returns 0x00 (0001ms, 18449ms total)
T0518 374:703 JLINK_WriteReg(CFBP, 0x00000000)  returns 0x00 (0000ms, 18449ms total)
T0518 374:703 JLINK_SetBPEx(Addr = 0x20000000, Type = 0xFFFFFFF2)  returns 0x00000003 (0000ms, 18449ms total)
T0518 374:703 JLINK_Go() -- CPU_ReadMem(4 bytes @ 0xE0001000) (0003ms, 18452ms total)
T0518 374:706 JLINK_IsHalted()  returns FALSE (0001ms, 18453ms total)
T0518 374:735 JLINK_IsHalted() -- CPU_ReadMem(2 bytes @ 0x20000000)  returns TRUE (0003ms, 18455ms total)
T0518 374:738 JLINK_ReadReg(R15 (PC))  returns 0x20000000 (0000ms, 18452ms total)
T0518 374:738 JLINK_ClrBPEx(BPHandle = 0x00000003)  returns 0x00 (0001ms, 18453ms total)
T0518 374:739 JLINK_ReadReg(R0)  returns 0x00000000 (0000ms, 18453ms total)
T0518 374:740 JLINK_WriteReg(R0, 0x08000800)  returns 0x00 (0000ms, 18453ms total)
T0518 374:740 JLINK_WriteReg(R1, 0x00000800)  returns 0x00 (0000ms, 18453ms total)
T0518 374:740 JLINK_WriteReg(R2, 0x000000FF)  returns 0x00 (0000ms, 18453ms total)
T0518 374:740 JLINK_WriteReg(R3, 0x00000000)  returns 0x00 (0000ms, 18453ms total)
T0518 374:740 JLINK_WriteReg(R4, 0x00000000)  returns 0x00 (0000ms, 18453ms total)
T0518 374:740 JLINK_WriteReg(R5, 0x00000000)  returns 0x00 (0000ms, 18453ms total)
T0518 374:740 JLINK_WriteReg(R6, 0x00000000)  returns 0x00 (0000ms, 18453ms total)
T0518 374:740 JLINK_WriteReg(R7, 0x00000000)  returns 0x00 (0000ms, 18453ms total)
T0518 374:740 JLINK_WriteReg(R8, 0x00000000)  returns 0x00 (0000ms, 18453ms total)
T0518 374:740 JLINK_WriteReg(R9, 0x200001B8)  returns 0x00 (0000ms, 18453ms total)
T0518 374:740 JLINK_WriteReg(R10, 0x00000000)  returns 0x00 (0001ms, 18454ms total)
T0518 374:741 JLINK_WriteReg(R11, 0x00000000)  returns 0x00 (0000ms, 18454ms total)
T0518 374:741 JLINK_WriteReg(R12, 0x00000000)  returns 0x00 (0000ms, 18454ms total)
T0518 374:741 JLINK_WriteReg(R13 (SP), 0x20001000)  returns 0x00 (0000ms, 18454ms total)
T0518 374:741 JLINK_WriteReg(R14, 0x20000001)  returns 0x00 (0000ms, 18454ms total)
T0518 374:741 JLINK_WriteReg(R15 (PC), 0x200000BC)  returns 0x00 (0000ms, 18454ms total)
T0518 374:741 JLINK_WriteReg(XPSR, 0x01000000)  returns 0x00 (0000ms, 18454ms total)
T0518 374:741 JLINK_WriteReg(MSP, 0x20001000)  returns 0x00 (0000ms, 18454ms total)
T0518 374:741 JLINK_WriteReg(PSP, 0x20001000)  returns 0x00 (0000ms, 18454ms total)
T0518 374:741 JLINK_WriteReg(CFBP, 0x00000000)  returns 0x00 (0000ms, 18454ms total)
T0518 374:741 JLINK_SetBPEx(Addr = 0x20000000, Type = 0xFFFFFFF2)  returns 0x00000004 (0000ms, 18454ms total)
T0518 374:741 JLINK_Go() -- CPU_ReadMem(4 bytes @ 0xE0001000) (0004ms, 18458ms total)
T0518 374:745 JLINK_IsHalted() -- CPU_ReadMem(2 bytes @ 0x20000000)  returns TRUE (0004ms, 18462ms total)
T0518 374:749 JLINK_ReadReg(R15 (PC))  returns 0x20000000 (0000ms, 18458ms total)
T0518 374:749 JLINK_ClrBPEx(BPHandle = 0x00000004)  returns 0x00 (0000ms, 18458ms total)
T0518 374:749 JLINK_ReadReg(R0)  returns 0x00000001 (0000ms, 18458ms total)
T0518 374:749 JLINK_WriteReg(R0, 0x08000800)  returns 0x00 (0000ms, 18458ms total)
T0518 374:749 JLINK_WriteReg(R1, 0x00000800)  returns 0x00 (0000ms, 18458ms total)
T0518 374:749 JLINK_WriteReg(R2, 0x000000FF)  returns 0x00 (0000ms, 18458ms total)
T0518 374:749 JLINK_WriteReg(R3, 0x00000000)  returns 0x00 (0000ms, 18458ms total)
T0518 374:749 JLINK_WriteReg(R4, 0x00000000)  returns 0x00 (0000ms, 18458ms total)
T0518 374:749 JLINK_WriteReg(R5, 0x00000000)  returns 0x00 (0001ms, 18459ms total)
T0518 374:750 JLINK_WriteReg(R6, 0x00000000)  returns 0x00 (0000ms, 18459ms total)
T0518 374:750 JLINK_WriteReg(R7, 0x00000000)  returns 0x00 (0000ms, 18459ms total)
T0518 374:750 JLINK_WriteReg(R8, 0x00000000)  returns 0x00 (0000ms, 18459ms total)
T0518 374:750 JLINK_WriteReg(R9, 0x200001B8)  returns 0x00 (0000ms, 18459ms total)
T0518 374:750 JLINK_WriteReg(R10, 0x00000000)  returns 0x00 (0000ms, 18459ms total)
T0518 374:750 JLINK_WriteReg(R11, 0x00000000)  returns 0x00 (0000ms, 18459ms total)
T0518 374:750 JLINK_WriteReg(R12, 0x00000000)  returns 0x00 (0000ms, 18459ms total)
T0518 374:750 JLINK_WriteReg(R13 (SP), 0x20001000)  returns 0x00 (0000ms, 18459ms total)
T0518 374:750 JLINK_WriteReg(R14, 0x20000001)  returns 0x00 (0000ms, 18459ms total)
T0518 374:750 JLINK_WriteReg(R15 (PC), 0x200000EA)  returns 0x00 (0000ms, 18459ms total)
T0518 374:750 JLINK_WriteReg(XPSR, 0x01000000)  returns 0x00 (0000ms, 18459ms total)
T0518 374:750 JLINK_WriteReg(MSP, 0x20001000)  returns 0x00 (0001ms, 18460ms total)
T0518 374:751 JLINK_WriteReg(PSP, 0x20001000)  returns 0x00 (0000ms, 18460ms total)
T0518 374:751 JLINK_WriteReg(CFBP, 0x00000000)  returns 0x00 (0000ms, 18460ms total)
T0518 374:751 JLINK_SetBPEx(Addr = 0x20000000, Type = 0xFFFFFFF2)  returns 0x00000005 (0000ms, 18460ms total)
T0518 374:751 JLINK_Go() -- CPU_ReadMem(4 bytes @ 0xE0001000) (0003ms, 18463ms total)
T0518 374:754 JLINK_IsHalted()  returns FALSE (0001ms, 18464ms total)
T0518 374:759 JLINK_IsHalted()  returns FALSE (0000ms, 18463ms total)
T0518 374:761 JLINK_IsHalted()  returns FALSE (0000ms, 18463ms total)
T0518 374:763 JLINK_IsHalted()  returns FALSE (0000ms, 18463ms total)
T0518 374:765 JLINK_IsHalted()  returns FALSE (0000ms, 18463ms total)
T0518 374:767 JLINK_IsHalted()  returns FALSE (0000ms, 18463ms total)
T0518 374:769 JLINK_IsHalted()  returns FALSE (0000ms, 18463ms total)
T0518 374:771 JLINK_IsHalted()  returns FALSE (0000ms, 18463ms total)
T0518 374:773 JLINK_IsHalted()  returns FALSE (0000ms, 18463ms total)
T0518 374:775 JLINK_IsHalted()  returns FALSE (0000ms, 18463ms total)
T0518 374:777 JLINK_IsHalted() -- CPU_ReadMem(2 bytes @ 0x20000000)  returns TRUE (0003ms, 18466ms total)
T0518 374:780 JLINK_ReadReg(R15 (PC))  returns 0x20000000 (0000ms, 18463ms total)
T0518 374:780 JLINK_ClrBPEx(BPHandle = 0x00000005)  returns 0x00 (0000ms, 18463ms total)
T0518 374:780 JLINK_ReadReg(R0)  returns 0x00000000 (0001ms, 18464ms total)
T0518 374:782 JLINK_WriteReg(R0, 0x08001000)  returns 0x00 (0000ms, 18464ms total)
T0518 374:782 JLINK_WriteReg(R1, 0x00000800)  returns 0x00 (0000ms, 18464ms total)
T0518 374:782 JLINK_WriteReg(R2, 0x000000FF)  returns 0x00 (0000ms, 18464ms total)
T0518 374:782 JLINK_WriteReg(R3, 0x00000000)  returns 0x00 (0000ms, 18464ms total)
T0518 374:782 JLINK_WriteReg(R4, 0x00000000)  returns 0x00 (0000ms, 18464ms total)
T0518 374:782 JLINK_WriteReg(R5, 0x00000000)  returns 0x00 (0000ms, 18464ms total)
T0518 374:782 JLINK_WriteReg(R6, 0x00000000)  returns 0x00 (0000ms, 18464ms total)
T0518 374:782 JLINK_WriteReg(R7, 0x00000000)  returns 0x00 (0000ms, 18464ms total)
T0518 374:782 JLINK_WriteReg(R8, 0x00000000)  returns 0x00 (0000ms, 18464ms total)
T0518 374:782 JLINK_WriteReg(R9, 0x200001B8)  returns 0x00 (0000ms, 18464ms total)
T0518 374:782 JLINK_WriteReg(R10, 0x00000000)  returns 0x00 (0000ms, 18464ms total)
T0518 374:783 JLINK_WriteReg(R11, 0x00000000)  returns 0x00 (0000ms, 18465ms total)
T0518 374:783 JLINK_WriteReg(R12, 0x00000000)  returns 0x00 (0000ms, 18465ms total)
T0518 374:783 JLINK_WriteReg(R13 (SP), 0x20001000)  returns 0x00 (0000ms, 18465ms total)
T0518 374:783 JLINK_WriteReg(R14, 0x20000001)  returns 0x00 (0000ms, 18465ms total)
T0518 374:783 JLINK_WriteReg(R15 (PC), 0x200000BC)  returns 0x00 (0000ms, 18465ms total)
T0518 374:783 JLINK_WriteReg(XPSR, 0x01000000)  returns 0x00 (0000ms, 18465ms total)
T0518 374:783 JLINK_WriteReg(MSP, 0x20001000)  returns 0x00 (0000ms, 18465ms total)
T0518 374:783 JLINK_WriteReg(PSP, 0x20001000)  returns 0x00 (0000ms, 18465ms total)
T0518 374:783 JLINK_WriteReg(CFBP, 0x00000000)  returns 0x00 (0000ms, 18465ms total)
T0518 374:783 JLINK_SetBPEx(Addr = 0x20000000, Type = 0xFFFFFFF2)  returns 0x00000006 (0000ms, 18465ms total)
T0518 374:784 JLINK_Go() -- CPU_ReadMem(4 bytes @ 0xE0001000) (0003ms, 18468ms total)
T0518 374:787 JLINK_IsHalted() -- CPU_ReadMem(2 bytes @ 0x20000000)  returns TRUE (0004ms, 18472ms total)
T0518 374:791 JLINK_ReadReg(R15 (PC))  returns 0x20000000 (0000ms, 18468ms total)
T0518 374:791 JLINK_ClrBPEx(BPHandle = 0x00000006)  returns 0x00 (0000ms, 18468ms total)
T0518 374:791 JLINK_ReadReg(R0)  returns 0x00000001 (0000ms, 18468ms total)
T0518 374:791 JLINK_WriteReg(R0, 0x08001000)  returns 0x00 (0000ms, 18468ms total)
T0518 374:791 JLINK_WriteReg(R1, 0x00000800)  returns 0x00 (0000ms, 18468ms total)
T0518 374:791 JLINK_WriteReg(R2, 0x000000FF)  returns 0x00 (0000ms, 18468ms total)
T0518 374:791 JLINK_WriteReg(R3, 0x00000000)  returns 0x00 (0000ms, 18468ms total)
T0518 374:791 JLINK_WriteReg(R4, 0x00000000)  returns 0x00 (0000ms, 18468ms total)
T0518 374:791 JLINK_WriteReg(R5, 0x00000000)  returns 0x00 (0001ms, 18469ms total)
T0518 374:792 JLINK_WriteReg(R6, 0x00000000)  returns 0x00 (0000ms, 18469ms total)
T0518 374:792 JLINK_WriteReg(R7, 0x00000000)  returns 0x00 (0000ms, 18469ms total)
T0518 374:792 JLINK_WriteReg(R8, 0x00000000)  returns 0x00 (0000ms, 18469ms total)
T0518 374:792 JLINK_WriteReg(R9, 0x200001B8)  returns 0x00 (0000ms, 18469ms total)
T0518 374:792 JLINK_WriteReg(R10, 0x00000000)  returns 0x00 (0000ms, 18469ms total)
T0518 374:792 JLINK_WriteReg(R11, 0x00000000)  returns 0x00 (0000ms, 18469ms total)
T0518 374:792 JLINK_WriteReg(R12, 0x00000000)  returns 0x00 (0000ms, 18469ms total)
T0518 374:792 JLINK_WriteReg(R13 (SP), 0x20001000)  returns 0x00 (0000ms, 18469ms total)
T0518 374:792 JLINK_WriteReg(R14, 0x20000001)  returns 0x00 (0000ms, 18469ms total)
T0518 374:792 JLINK_WriteReg(R15 (PC), 0x200000EA)  returns 0x00 (0000ms, 18469ms total)
T0518 374:792 JLINK_WriteReg(XPSR, 0x01000000)  returns 0x00 (0000ms, 18469ms total)
T0518 374:792 JLINK_WriteReg(MSP, 0x20001000)  returns 0x00 (0001ms, 18470ms total)
T0518 374:793 JLINK_WriteReg(PSP, 0x20001000)  returns 0x00 (0000ms, 18470ms total)
T0518 374:793 JLINK_WriteReg(CFBP, 0x00000000)  returns 0x00 (0000ms, 18470ms total)
T0518 374:793 JLINK_SetBPEx(Addr = 0x20000000, Type = 0xFFFFFFF2)  returns 0x00000007 (0000ms, 18470ms total)
T0518 374:793 JLINK_Go() -- CPU_ReadMem(4 bytes @ 0xE0001000) (0003ms, 18473ms total)
T0518 374:796 JLINK_IsHalted()  returns FALSE (0001ms, 18474ms total)
T0518 374:800 JLINK_IsHalted()  returns FALSE (0000ms, 18473ms total)
T0518 374:802 JLINK_IsHalted()  returns FALSE (0000ms, 18473ms total)
T0518 374:804 JLINK_IsHalted()  returns FALSE (0000ms, 18473ms total)
T0518 374:806 JLINK_IsHalted()  returns FALSE (0001ms, 18474ms total)
T0518 374:808 JLINK_IsHalted()  returns FALSE (0001ms, 18474ms total)
T0518 374:811 JLINK_IsHalted()  returns FALSE (0000ms, 18473ms total)
T0518 374:814 JLINK_IsHalted()  returns FALSE (0001ms, 18474ms total)
T0518 374:816 JLINK_IsHalted()  returns FALSE (0001ms, 18474ms total)
T0518 374:818 JLINK_IsHalted()  returns FALSE (0001ms, 18474ms total)
T0518 374:820 JLINK_IsHalted() -- CPU_ReadMem(2 bytes @ 0x20000000)  returns TRUE (0003ms, 18476ms total)
T0518 374:823 JLINK_ReadReg(R15 (PC))  returns 0x20000000 (0000ms, 18473ms total)
T0518 374:823 JLINK_ClrBPEx(BPHandle = 0x00000007)  returns 0x00 (0000ms, 18473ms total)
T0518 374:823 JLINK_ReadReg(R0)  returns 0x00000000 (0000ms, 18473ms total)
T0518 374:824 JLINK_WriteReg(R0, 0x00000001)  returns 0x00 (0000ms, 18473ms total)
T0518 374:824 JLINK_WriteReg(R1, 0x00000800)  returns 0x00 (0000ms, 18473ms total)
T0518 374:824 JLINK_WriteReg(R2, 0x000000FF)  returns 0x00 (0001ms, 18474ms total)
T0518 374:825 JLINK_WriteReg(R3, 0x00000000)  returns 0x00 (0000ms, 18474ms total)
T0518 374:825 JLINK_WriteReg(R4, 0x00000000)  returns 0x00 (0000ms, 18474ms total)
T0518 374:825 JLINK_WriteReg(R5, 0x00000000)  returns 0x00 (0000ms, 18474ms total)
T0518 374:825 JLINK_WriteReg(R6, 0x00000000)  returns 0x00 (0000ms, 18474ms total)
T0518 374:825 JLINK_WriteReg(R7, 0x00000000)  returns 0x00 (0000ms, 18474ms total)
T0518 374:825 JLINK_WriteReg(R8, 0x00000000)  returns 0x00 (0000ms, 18474ms total)
T0518 374:825 JLINK_WriteReg(R9, 0x200001B8)  returns 0x00 (0000ms, 18474ms total)
T0518 374:825 JLINK_WriteReg(R10, 0x00000000)  returns 0x00 (0000ms, 18474ms total)
T0518 374:825 JLINK_WriteReg(R11, 0x00000000)  returns 0x00 (0000ms, 18474ms total)
T0518 374:825 JLINK_WriteReg(R12, 0x00000000)  returns 0x00 (0001ms, 18475ms total)
T0518 374:826 JLINK_WriteReg(R13 (SP), 0x20001000)  returns 0x00 (0000ms, 18475ms total)
T0518 374:826 JLINK_WriteReg(R14, 0x20000001)  returns 0x00 (0000ms, 18475ms total)
T0518 374:826 JLINK_WriteReg(R15 (PC), 0x200000B0)  returns 0x00 (0000ms, 18475ms total)
T0518 374:826 JLINK_WriteReg(XPSR, 0x01000000)  returns 0x00 (0000ms, 18475ms total)
T0518 374:826 JLINK_WriteReg(MSP, 0x20001000)  returns 0x00 (0000ms, 18475ms total)
T0518 374:826 JLINK_WriteReg(PSP, 0x20001000)  returns 0x00 (0000ms, 18475ms total)
T0518 374:826 JLINK_WriteReg(CFBP, 0x00000000)  returns 0x00 (0000ms, 18475ms total)
T0518 374:826 JLINK_SetBPEx(Addr = 0x20000000, Type = 0xFFFFFFF2)  returns 0x00000008 (0000ms, 18475ms total)
T0518 374:826 JLINK_Go() -- CPU_ReadMem(4 bytes @ 0xE0001000) (0004ms, 18479ms total)
T0518 374:830 JLINK_IsHalted() -- CPU_ReadMem(2 bytes @ 0x20000000)  returns TRUE (0003ms, 18482ms total)
T0518 374:833 JLINK_ReadReg(R15 (PC))  returns 0x20000000 (0001ms, 18480ms total)
T0518 374:834 JLINK_ClrBPEx(BPHandle = 0x00000008)  returns 0x00 (0000ms, 18480ms total)
T0518 374:834 JLINK_ReadReg(R0)  returns 0x00000000 (0000ms, 18480ms total)
T0518 374:895 JLINK_WriteMem(0x20000000, 0x01BC Bytes, ...) - Data: 00 BE 0A E0 0D 78 2D 06 68 40 08 24 40 00 00 D3 ... -- CPU_WriteMem(444 bytes @ 0x20000000)  returns 0x1BC (0003ms, 18483ms total)
T0518 374:899 JLINK_WriteReg(R0, 0x08000000)  returns 0x00 (0000ms, 18483ms total)
T0518 374:899 JLINK_WriteReg(R1, 0x04C4B400)  returns 0x00 (0000ms, 18483ms total)
T0518 374:899 JLINK_WriteReg(R2, 0x00000002)  returns 0x00 (0000ms, 18483ms total)
T0518 374:899 JLINK_WriteReg(R3, 0x00000000)  returns 0x00 (0000ms, 18483ms total)
T0518 374:899 JLINK_WriteReg(R4, 0x00000000)  returns 0x00 (0000ms, 18483ms total)
T0518 374:899 JLINK_WriteReg(R5, 0x00000000)  returns 0x00 (0000ms, 18483ms total)
T0518 374:899 JLINK_WriteReg(R6, 0x00000000)  returns 0x00 (0000ms, 18483ms total)
T0518 374:899 JLINK_WriteReg(R7, 0x00000000)  returns 0x00 (0000ms, 18483ms total)
T0518 374:899 JLINK_WriteReg(R8, 0x00000000)  returns 0x00 (0000ms, 18483ms total)
T0518 374:899 JLINK_WriteReg(R9, 0x200001B8)  returns 0x00 (0000ms, 18483ms total)
T0518 374:899 JLINK_WriteReg(R10, 0x00000000)  returns 0x00 (0001ms, 18484ms total)
T0518 374:900 JLINK_WriteReg(R11, 0x00000000)  returns 0x00 (0000ms, 18484ms total)
T0518 374:900 JLINK_WriteReg(R12, 0x00000000)  returns 0x00 (0000ms, 18484ms total)
T0518 374:900 JLINK_WriteReg(R13 (SP), 0x20001000)  returns 0x00 (0000ms, 18484ms total)
T0518 374:900 JLINK_WriteReg(R14, 0x20000001)  returns 0x00 (0000ms, 18484ms total)
T0518 374:900 JLINK_WriteReg(R15 (PC), 0x20000086)  returns 0x00 (0000ms, 18484ms total)
T0518 374:900 JLINK_WriteReg(XPSR, 0x01000000)  returns 0x00 (0000ms, 18484ms total)
T0518 374:900 JLINK_WriteReg(MSP, 0x20001000)  returns 0x00 (0000ms, 18484ms total)
T0518 374:900 JLINK_WriteReg(PSP, 0x20001000)  returns 0x00 (0000ms, 18484ms total)
T0518 374:900 JLINK_WriteReg(CFBP, 0x00000000)  returns 0x00 (0000ms, 18484ms total)
T0518 374:900 JLINK_SetBPEx(Addr = 0x20000000, Type = 0xFFFFFFF2) -- CPU_ReadMem(2 bytes @ 0x20000000)  returns 0x00000009 (0001ms, 18485ms total)
T0518 374:901 JLINK_Go() -- CPU_WriteMem(2 bytes @ 0x20000000) -- CPU_ReadMem(4 bytes @ 0xE0001000) (0004ms, 18489ms total)
T0518 374:905 JLINK_IsHalted() -- CPU_ReadMem(2 bytes @ 0x20000000)  returns TRUE (0004ms, 18493ms total)
T0518 374:909 JLINK_ReadReg(R15 (PC))  returns 0x20000000 (0000ms, 18489ms total)
T0518 374:909 JLINK_ClrBPEx(BPHandle = 0x00000009)  returns 0x00 (0000ms, 18489ms total)
T0518 374:909 JLINK_ReadReg(R0)  returns 0x00000000 (0000ms, 18489ms total)
T0518 374:910 JLINK_WriteMem(0x200001BC, 0x0244 Bytes, ...) - Data: D0 06 00 20 9D 01 00 08 CF 10 00 08 CB 10 00 08 ... -- CPU_WriteMem(580 bytes @ 0x200001BC)  returns 0x244 (0003ms, 18492ms total)
T0518 374:913 JLINK_WriteMem(0x20000400, 0x01BC Bytes, ...) - Data: 0C FA 03 F4 22 40 70 D0 4D 68 02 2D 01 D0 12 2D ... -- CPU_WriteMem(444 bytes @ 0x20000400)  returns 0x1BC (0004ms, 18496ms total)
T0518 374:917 JLINK_WriteReg(R0, 0x08000000)  returns 0x00 (0000ms, 18496ms total)
T0518 374:917 JLINK_WriteReg(R1, 0x00000400)  returns 0x00 (0000ms, 18496ms total)
T0518 374:917 JLINK_WriteReg(R2, 0x200001BC)  returns 0x00 (0000ms, 18496ms total)
T0518 374:917 JLINK_WriteReg(R3, 0x00000000)  returns 0x00 (0000ms, 18496ms total)
T0518 374:917 JLINK_WriteReg(R4, 0x00000000)  returns 0x00 (0000ms, 18496ms total)
T0518 374:917 JLINK_WriteReg(R5, 0x00000000)  returns 0x00 (0000ms, 18496ms total)
T0518 374:917 JLINK_WriteReg(R6, 0x00000000)  returns 0x00 (0000ms, 18496ms total)
T0518 374:917 JLINK_WriteReg(R7, 0x00000000)  returns 0x00 (0000ms, 18496ms total)
T0518 374:917 JLINK_WriteReg(R8, 0x00000000)  returns 0x00 (0000ms, 18496ms total)
T0518 374:917 JLINK_WriteReg(R9, 0x200001B8)  returns 0x00 (0000ms, 18496ms total)
T0518 374:917 JLINK_WriteReg(R10, 0x00000000)  returns 0x00 (0000ms, 18496ms total)
T0518 374:917 JLINK_WriteReg(R11, 0x00000000)  returns 0x00 (0000ms, 18496ms total)
T0518 374:917 JLINK_WriteReg(R12, 0x00000000)  returns 0x00 (0000ms, 18496ms total)
T0518 374:917 JLINK_WriteReg(R13 (SP), 0x20001000)  returns 0x00 (0001ms, 18497ms total)
T0518 374:918 JLINK_WriteReg(R14, 0x20000001)  returns 0x00 (0000ms, 18497ms total)
T0518 374:918 JLINK_WriteReg(R15 (PC), 0x20000136)  returns 0x00 (0000ms, 18497ms total)
T0518 374:918 JLINK_WriteReg(XPSR, 0x01000000)  returns 0x00 (0000ms, 18497ms total)
T0518 374:918 JLINK_WriteReg(MSP, 0x20001000)  returns 0x00 (0000ms, 18497ms total)
T0518 374:918 JLINK_WriteReg(PSP, 0x20001000)  returns 0x00 (0000ms, 18497ms total)
T0518 374:918 JLINK_WriteReg(CFBP, 0x00000000)  returns 0x00 (0000ms, 18497ms total)
T0518 374:918 JLINK_SetBPEx(Addr = 0x20000000, Type = 0xFFFFFFF2)  returns 0x0000000A (0000ms, 18497ms total)
T0518 374:918 JLINK_Go() -- CPU_ReadMem(4 bytes @ 0xE0001000) (0003ms, 18500ms total)
T0518 374:921 JLINK_IsHalted()  returns FALSE (0001ms, 18501ms total)
T0518 374:926 JLINK_IsHalted()  returns FALSE (0000ms, 18500ms total)
T0518 374:928 JLINK_IsHalted()  returns FALSE (0000ms, 18500ms total)
T0518 374:930 JLINK_IsHalted()  returns FALSE (0000ms, 18500ms total)
T0518 374:932 JLINK_IsHalted()  returns FALSE (0000ms, 18500ms total)
T0518 374:934 JLINK_IsHalted() -- CPU_ReadMem(2 bytes @ 0x20000000)  returns TRUE (0003ms, 18503ms total)
T0518 374:937 JLINK_ReadReg(R15 (PC))  returns 0x20000000 (0000ms, 18500ms total)
T0518 374:937 JLINK_ClrBPEx(BPHandle = 0x0000000A)  returns 0x00 (0000ms, 18500ms total)
T0518 374:937 JLINK_ReadReg(R0)  returns 0x00000000 (0000ms, 18500ms total)
T0518 374:938 JLINK_WriteMem(0x200001BC, 0x0244 Bytes, ...) - Data: 30 B5 8B B0 04 00 03 D0 94 F8 B9 02 18 B1 08 E0 ... -- CPU_WriteMem(580 bytes @ 0x200001BC)  returns 0x244 (0004ms, 18504ms total)
T0518 374:942 JLINK_WriteMem(0x20000400, 0x01BC Bytes, ...) - Data: 20 F4 C0 60 40 F4 00 70 08 60 0B 48 32 22 00 68 ... -- CPU_WriteMem(444 bytes @ 0x20000400)  returns 0x1BC (0003ms, 18507ms total)
T0518 374:945 JLINK_WriteReg(R0, 0x08000400)  returns 0x00 (0000ms, 18507ms total)
T0518 374:945 JLINK_WriteReg(R1, 0x00000400)  returns 0x00 (0000ms, 18507ms total)
T0518 374:945 JLINK_WriteReg(R2, 0x200001BC)  returns 0x00 (0000ms, 18507ms total)
T0518 374:945 JLINK_WriteReg(R3, 0x00000000)  returns 0x00 (0000ms, 18507ms total)
T0518 374:945 JLINK_WriteReg(R4, 0x00000000)  returns 0x00 (0000ms, 18507ms total)
T0518 374:945 JLINK_WriteReg(R5, 0x00000000)  returns 0x00 (0000ms, 18507ms total)
T0518 374:945 JLINK_WriteReg(R6, 0x00000000)  returns 0x00 (0000ms, 18507ms total)
T0518 374:945 JLINK_WriteReg(R7, 0x00000000)  returns 0x00 (0000ms, 18507ms total)
T0518 374:945 JLINK_WriteReg(R8, 0x00000000)  returns 0x00 (0000ms, 18507ms total)
T0518 374:945 JLINK_WriteReg(R9, 0x200001B8)  returns 0x00 (0000ms, 18507ms total)
T0518 374:946 JLINK_WriteReg(R10, 0x00000000)  returns 0x00 (0000ms, 18507ms total)
T0518 374:946 JLINK_WriteReg(R11, 0x00000000)  returns 0x00 (0000ms, 18507ms total)
T0518 374:946 JLINK_WriteReg(R12, 0x00000000)  returns 0x00 (0000ms, 18507ms total)
T0518 374:946 JLINK_WriteReg(R13 (SP), 0x20001000)  returns 0x00 (0000ms, 18507ms total)
T0518 374:946 JLINK_WriteReg(R14, 0x20000001)  returns 0x00 (0000ms, 18507ms total)
T0518 374:946 JLINK_WriteReg(R15 (PC), 0x20000136)  returns 0x00 (0000ms, 18507ms total)
T0518 374:946 JLINK_WriteReg(XPSR, 0x01000000)  returns 0x00 (0000ms, 18507ms total)
T0518 374:946 JLINK_WriteReg(MSP, 0x20001000)  returns 0x00 (0000ms, 18507ms total)
T0518 374:946 JLINK_WriteReg(PSP, 0x20001000)  returns 0x00 (0000ms, 18507ms total)
T0518 374:946 JLINK_WriteReg(CFBP, 0x00000000)  returns 0x00 (0000ms, 18507ms total)
T0518 374:946 JLINK_SetBPEx(Addr = 0x20000000, Type = 0xFFFFFFF2)  returns 0x0000000B (0000ms, 18507ms total)
T0518 374:946 JLINK_Go() -- CPU_ReadMem(4 bytes @ 0xE0001000) (0004ms, 18511ms total)
T0518 374:950 JLINK_IsHalted()  returns FALSE (0000ms, 18511ms total)
T0518 374:952 JLINK_IsHalted()  returns FALSE (0000ms, 18511ms total)
T0518 374:954 JLINK_IsHalted()  returns FALSE (0000ms, 18511ms total)
T0518 374:956 JLINK_IsHalted()  returns FALSE (0000ms, 18511ms total)
T0518 374:958 JLINK_IsHalted()  returns FALSE (0000ms, 18511ms total)
T0518 374:960 JLINK_IsHalted()  returns FALSE (0000ms, 18511ms total)
T0518 374:962 JLINK_IsHalted() -- CPU_ReadMem(2 bytes @ 0x20000000)  returns TRUE (0003ms, 18514ms total)
T0518 374:965 JLINK_ReadReg(R15 (PC))  returns 0x20000000 (0000ms, 18511ms total)
T0518 374:965 JLINK_ClrBPEx(BPHandle = 0x0000000B)  returns 0x00 (0000ms, 18511ms total)
T0518 374:965 JLINK_ReadReg(R0)  returns 0x00000000 (0000ms, 18511ms total)
T0518 374:966 JLINK_WriteMem(0x200001BC, 0x0244 Bytes, ...) - Data: 30 00 08 43 C5 F8 88 00 20 78 00 07 07 D5 D5 F8 ... -- CPU_WriteMem(580 bytes @ 0x200001BC)  returns 0x244 (0004ms, 18515ms total)
T0518 374:970 JLINK_WriteMem(0x20000400, 0x01BC Bytes, ...) - Data: 00 10 02 40 00 70 00 40 18 BC BD E8 E0 8F 00 00 ... -- CPU_WriteMem(444 bytes @ 0x20000400)  returns 0x1BC (0003ms, 18518ms total)
T0518 374:973 JLINK_WriteReg(R0, 0x08000800)  returns 0x00 (0000ms, 18518ms total)
T0518 374:973 JLINK_WriteReg(R1, 0x00000400)  returns 0x00 (0000ms, 18518ms total)
T0518 374:973 JLINK_WriteReg(R2, 0x200001BC)  returns 0x00 (0000ms, 18518ms total)
T0518 374:973 JLINK_WriteReg(R3, 0x00000000)  returns 0x00 (0000ms, 18518ms total)
T0518 374:973 JLINK_WriteReg(R4, 0x00000000)  returns 0x00 (0000ms, 18518ms total)
T0518 374:973 JLINK_WriteReg(R5, 0x00000000)  returns 0x00 (0000ms, 18518ms total)
T0518 374:973 JLINK_WriteReg(R6, 0x00000000)  returns 0x00 (0000ms, 18518ms total)
T0518 374:973 JLINK_WriteReg(R7, 0x00000000)  returns 0x00 (0000ms, 18518ms total)
T0518 374:973 JLINK_WriteReg(R8, 0x00000000)  returns 0x00 (0001ms, 18519ms total)
T0518 374:974 JLINK_WriteReg(R9, 0x200001B8)  returns 0x00 (0000ms, 18519ms total)
T0518 374:974 JLINK_WriteReg(R10, 0x00000000)  returns 0x00 (0000ms, 18519ms total)
T0518 374:974 JLINK_WriteReg(R11, 0x00000000)  returns 0x00 (0000ms, 18519ms total)
T0518 374:974 JLINK_WriteReg(R12, 0x00000000)  returns 0x00 (0000ms, 18519ms total)
T0518 374:974 JLINK_WriteReg(R13 (SP), 0x20001000)  returns 0x00 (0000ms, 18519ms total)
T0518 374:974 JLINK_WriteReg(R14, 0x20000001)  returns 0x00 (0000ms, 18519ms total)
T0518 374:974 JLINK_WriteReg(R15 (PC), 0x20000136)  returns 0x00 (0000ms, 18519ms total)
T0518 374:974 JLINK_WriteReg(XPSR, 0x01000000)  returns 0x00 (0000ms, 18519ms total)
T0518 374:974 JLINK_WriteReg(MSP, 0x20001000)  returns 0x00 (0000ms, 18519ms total)
T0518 374:974 JLINK_WriteReg(PSP, 0x20001000)  returns 0x00 (0000ms, 18519ms total)
T0518 374:974 JLINK_WriteReg(CFBP, 0x00000000)  returns 0x00 (0000ms, 18519ms total)
T0518 374:974 JLINK_SetBPEx(Addr = 0x20000000, Type = 0xFFFFFFF2)  returns 0x0000000C (0000ms, 18519ms total)
T0518 374:974 JLINK_Go() -- CPU_ReadMem(4 bytes @ 0xE0001000) (0004ms, 18523ms total)
T0518 374:978 JLINK_IsHalted()  returns FALSE (0000ms, 18523ms total)
T0518 374:981 JLINK_IsHalted()  returns FALSE (0000ms, 18523ms total)
T0518 374:983 JLINK_IsHalted()  returns FALSE (0000ms, 18523ms total)
T0518 374:985 JLINK_IsHalted()  returns FALSE (0000ms, 18523ms total)
T0518 374:987 JLINK_IsHalted()  returns FALSE (0000ms, 18523ms total)
T0518 374:989 JLINK_IsHalted()  returns FALSE (0000ms, 18523ms total)
T0518 374:991 JLINK_IsHalted() -- CPU_ReadMem(2 bytes @ 0x20000000)  returns TRUE (0003ms, 18526ms total)
T0518 374:994 JLINK_ReadReg(R15 (PC))  returns 0x20000000 (0000ms, 18523ms total)
T0518 374:994 JLINK_ClrBPEx(BPHandle = 0x0000000C)  returns 0x00 (0000ms, 18523ms total)
T0518 374:994 JLINK_ReadReg(R0)  returns 0x00000000 (0000ms, 18523ms total)
T0518 374:995 JLINK_WriteMem(0x200001BC, 0x0244 Bytes, ...) - Data: 50 43 C1 F3 41 61 49 1C 49 00 B0 FB F1 F0 70 BD ... -- CPU_WriteMem(580 bytes @ 0x200001BC)  returns 0x244 (0004ms, 18528ms total)
T0518 374:999 JLINK_WriteMem(0x20000400, 0x01BC Bytes, ...) - Data: 20 F4 80 70 20 60 FF F7 D3 FA 07 46 05 E0 00 BF ... -- CPU_WriteMem(444 bytes @ 0x20000400)  returns 0x1BC (0003ms, 18531ms total)
T0518 375:002 JLINK_WriteReg(R0, 0x08000C00)  returns 0x00 (0000ms, 18531ms total)
T0518 375:002 JLINK_WriteReg(R1, 0x00000400)  returns 0x00 (0000ms, 18531ms total)
T0518 375:002 JLINK_WriteReg(R2, 0x200001BC)  returns 0x00 (0000ms, 18531ms total)
T0518 375:002 JLINK_WriteReg(R3, 0x00000000)  returns 0x00 (0000ms, 18531ms total)
T0518 375:002 JLINK_WriteReg(R4, 0x00000000)  returns 0x00 (0000ms, 18531ms total)
T0518 375:002 JLINK_WriteReg(R5, 0x00000000)  returns 0x00 (0000ms, 18531ms total)
T0518 375:002 JLINK_WriteReg(R6, 0x00000000)  returns 0x00 (0000ms, 18531ms total)
T0518 375:002 JLINK_WriteReg(R7, 0x00000000)  returns 0x00 (0000ms, 18531ms total)
T0518 375:002 JLINK_WriteReg(R8, 0x00000000)  returns 0x00 (0001ms, 18532ms total)
T0518 375:003 JLINK_WriteReg(R9, 0x200001B8)  returns 0x00 (0000ms, 18532ms total)
T0518 375:003 JLINK_WriteReg(R10, 0x00000000)  returns 0x00 (0000ms, 18532ms total)
T0518 375:003 JLINK_WriteReg(R11, 0x00000000)  returns 0x00 (0000ms, 18532ms total)
T0518 375:003 JLINK_WriteReg(R12, 0x00000000)  returns 0x00 (0000ms, 18532ms total)
T0518 375:003 JLINK_WriteReg(R13 (SP), 0x20001000)  returns 0x00 (0000ms, 18532ms total)
T0518 375:003 JLINK_WriteReg(R14, 0x20000001)  returns 0x00 (0000ms, 18532ms total)
T0518 375:003 JLINK_WriteReg(R15 (PC), 0x20000136)  returns 0x00 (0000ms, 18532ms total)
T0518 375:003 JLINK_WriteReg(XPSR, 0x01000000)  returns 0x00 (0000ms, 18532ms total)
T0518 375:003 JLINK_WriteReg(MSP, 0x20001000)  returns 0x00 (0000ms, 18532ms total)
T0518 375:003 JLINK_WriteReg(PSP, 0x20001000)  returns 0x00 (0000ms, 18532ms total)
T0518 375:003 JLINK_WriteReg(CFBP, 0x00000000)  returns 0x00 (0000ms, 18532ms total)
T0518 375:003 JLINK_SetBPEx(Addr = 0x20000000, Type = 0xFFFFFFF2)  returns 0x0000000D (0000ms, 18532ms total)
T0518 375:003 JLINK_Go() -- CPU_ReadMem(4 bytes @ 0xE0001000) (0004ms, 18536ms total)
T0518 375:007 JLINK_IsHalted()  returns FALSE (0000ms, 18536ms total)
T0518 375:010 JLINK_IsHalted()  returns FALSE (0000ms, 18536ms total)
T0518 375:012 JLINK_IsHalted()  returns FALSE (0000ms, 18536ms total)
T0518 375:014 JLINK_IsHalted()  returns FALSE (0000ms, 18536ms total)
T0518 375:016 JLINK_IsHalted()  returns FALSE (0000ms, 18536ms total)
T0518 375:018 JLINK_IsHalted()  returns FALSE (0000ms, 18536ms total)
T0518 375:020 JLINK_IsHalted() -- CPU_ReadMem(2 bytes @ 0x20000000)  returns TRUE (0003ms, 18539ms total)
T0518 375:023 JLINK_ReadReg(R15 (PC))  returns 0x20000000 (0000ms, 18536ms total)
T0518 375:023 JLINK_ClrBPEx(BPHandle = 0x0000000D)  returns 0x00 (0000ms, 18536ms total)
T0518 375:023 JLINK_ReadReg(R0)  returns 0x00000000 (0000ms, 18536ms total)
T0518 375:024 JLINK_WriteMem(0x200001BC, 0x0244 Bytes, ...) - Data: 20 68 40 F0 80 70 20 60 E0 68 40 F0 80 70 E0 60 ... -- CPU_WriteMem(580 bytes @ 0x200001BC)  returns 0x244 (0004ms, 18540ms total)
T0518 375:028 JLINK_WriteMem(0x20000400, 0x01BC Bytes, ...) - Data: C0 F3 02 10 40 1C 88 42 0E D1 20 E0 01 28 04 D0 ... -- CPU_WriteMem(444 bytes @ 0x20000400)  returns 0x1BC (0003ms, 18543ms total)
T0518 375:031 JLINK_WriteReg(R0, 0x08001000)  returns 0x00 (0000ms, 18543ms total)
T0518 375:031 JLINK_WriteReg(R1, 0x00000400)  returns 0x00 (0000ms, 18543ms total)
T0518 375:031 JLINK_WriteReg(R2, 0x200001BC)  returns 0x00 (0000ms, 18543ms total)
T0518 375:031 JLINK_WriteReg(R3, 0x00000000)  returns 0x00 (0000ms, 18543ms total)
T0518 375:031 JLINK_WriteReg(R4, 0x00000000)  returns 0x00 (0000ms, 18543ms total)
T0518 375:031 JLINK_WriteReg(R5, 0x00000000)  returns 0x00 (0000ms, 18543ms total)
T0518 375:031 JLINK_WriteReg(R6, 0x00000000)  returns 0x00 (0000ms, 18543ms total)
T0518 375:031 JLINK_WriteReg(R7, 0x00000000)  returns 0x00 (0000ms, 18543ms total)
T0518 375:031 JLINK_WriteReg(R8, 0x00000000)  returns 0x00 (0001ms, 18544ms total)
T0518 375:032 JLINK_WriteReg(R9, 0x200001B8)  returns 0x00 (0000ms, 18544ms total)
T0518 375:032 JLINK_WriteReg(R10, 0x00000000)  returns 0x00 (0000ms, 18544ms total)
T0518 375:032 JLINK_WriteReg(R11, 0x00000000)  returns 0x00 (0000ms, 18544ms total)
T0518 375:032 JLINK_WriteReg(R12, 0x00000000)  returns 0x00 (0000ms, 18544ms total)
T0518 375:032 JLINK_WriteReg(R13 (SP), 0x20001000)  returns 0x00 (0000ms, 18544ms total)
T0518 375:032 JLINK_WriteReg(R14, 0x20000001)  returns 0x00 (0000ms, 18544ms total)
T0518 375:032 JLINK_WriteReg(R15 (PC), 0x20000136)  returns 0x00 (0000ms, 18544ms total)
T0518 375:032 JLINK_WriteReg(XPSR, 0x01000000)  returns 0x00 (0000ms, 18544ms total)
T0518 375:032 JLINK_WriteReg(MSP, 0x20001000)  returns 0x00 (0000ms, 18544ms total)
T0518 375:032 JLINK_WriteReg(PSP, 0x20001000)  returns 0x00 (0000ms, 18544ms total)
T0518 375:032 JLINK_WriteReg(CFBP, 0x00000000)  returns 0x00 (0000ms, 18544ms total)
T0518 375:032 JLINK_SetBPEx(Addr = 0x20000000, Type = 0xFFFFFFF2)  returns 0x0000000E (0000ms, 18544ms total)
T0518 375:032 JLINK_Go() -- CPU_ReadMem(4 bytes @ 0xE0001000) (0004ms, 18548ms total)
T0518 375:036 JLINK_IsHalted()  returns FALSE (0000ms, 18548ms total)
T0518 375:038 JLINK_IsHalted()  returns FALSE (0000ms, 18548ms total)
T0518 375:040 JLINK_IsHalted()  returns FALSE (0000ms, 18548ms total)
T0518 375:042 JLINK_IsHalted()  returns FALSE (0000ms, 18548ms total)
T0518 375:044 JLINK_IsHalted()  returns FALSE (0000ms, 18548ms total)
T0518 375:047 JLINK_IsHalted()  returns FALSE (0000ms, 18548ms total)
T0518 375:049 JLINK_IsHalted() -- CPU_ReadMem(2 bytes @ 0x20000000)  returns TRUE (0003ms, 18551ms total)
T0518 375:052 JLINK_ReadReg(R15 (PC))  returns 0x20000000 (0000ms, 18548ms total)
T0518 375:052 JLINK_ClrBPEx(BPHandle = 0x0000000E)  returns 0x00 (0000ms, 18548ms total)
T0518 375:052 JLINK_ReadReg(R0)  returns 0x00000000 (0000ms, 18548ms total)
T0518 375:053 JLINK_WriteMem(0x200001BC, 0x0244 Bytes, ...) - Data: 4F F4 00 50 00 90 40 03 1B 90 18 20 CD E9 02 40 ... -- CPU_WriteMem(580 bytes @ 0x200001BC)  returns 0x244 (0004ms, 18552ms total)
T0518 375:057 JLINK_WriteMem(0x20000400, 0x01BC Bytes, ...) - Data: 10 00 A0 61 A0 69 07 49 08 43 A0 61 00 20 BD E8 ... -- CPU_WriteMem(444 bytes @ 0x20000400)  returns 0x1BC (0003ms, 18555ms total)
T0518 375:060 JLINK_WriteReg(R0, 0x08001400)  returns 0x00 (0000ms, 18555ms total)
T0518 375:060 JLINK_WriteReg(R1, 0x0000036C)  returns 0x00 (0000ms, 18555ms total)
T0518 375:060 JLINK_WriteReg(R2, 0x200001BC)  returns 0x00 (0000ms, 18555ms total)
T0518 375:060 JLINK_WriteReg(R3, 0x00000000)  returns 0x00 (0000ms, 18555ms total)
T0518 375:060 JLINK_WriteReg(R4, 0x00000000)  returns 0x00 (0000ms, 18555ms total)
T0518 375:060 JLINK_WriteReg(R5, 0x00000000)  returns 0x00 (0000ms, 18555ms total)
T0518 375:060 JLINK_WriteReg(R6, 0x00000000)  returns 0x00 (0000ms, 18555ms total)
T0518 375:061 JLINK_WriteReg(R7, 0x00000000)  returns 0x00 (0000ms, 18555ms total)
T0518 375:061 JLINK_WriteReg(R8, 0x00000000)  returns 0x00 (0000ms, 18555ms total)
T0518 375:061 JLINK_WriteReg(R9, 0x200001B8)  returns 0x00 (0000ms, 18555ms total)
T0518 375:061 JLINK_WriteReg(R10, 0x00000000)  returns 0x00 (0000ms, 18555ms total)
T0518 375:061 JLINK_WriteReg(R11, 0x00000000)  returns 0x00 (0000ms, 18555ms total)
T0518 375:061 JLINK_WriteReg(R12, 0x00000000)  returns 0x00 (0000ms, 18555ms total)
T0518 375:061 JLINK_WriteReg(R13 (SP), 0x20001000)  returns 0x00 (0000ms, 18555ms total)
T0518 375:061 JLINK_WriteReg(R14, 0x20000001)  returns 0x00 (0000ms, 18555ms total)
T0518 375:061 JLINK_WriteReg(R15 (PC), 0x20000136)  returns 0x00 (0000ms, 18555ms total)
T0518 375:061 JLINK_WriteReg(XPSR, 0x01000000)  returns 0x00 (0000ms, 18555ms total)
T0518 375:061 JLINK_WriteReg(MSP, 0x20001000)  returns 0x00 (0000ms, 18555ms total)
T0518 375:061 JLINK_WriteReg(PSP, 0x20001000)  returns 0x00 (0000ms, 18555ms total)
